Sample in Buffer	Sample in Window	adc1_data	adc1_shape
0	0	00F3	0113	
1	1	00F3	0112	
2	2	00F4	0112	
3	3	00F7	0112	
4	4	00F4	0112	
5	5	00F4	0112	
6	6	00F2	0112	
7	7	00F5	0112	
8	8	00F4	0111	
9	9	00F3	0112	
10	10	00F3	0111	
11	11	00F5	0112	
12	12	00F4	0111	
13	13	00F5	0111	
14	14	00F5	0112	
15	15	00F6	0112	
16	16	00FA	0112	
17	17	00F7	0112	
18	18	00F8	0113	
19	19	00F7	0113	
20	20	00F3	0113	
21	21	00F8	0113	
22	22	00F8	0113	
23	23	00F4	0114	
24	24	00FB	0114	
25	25	00F6	0114	
26	26	00F4	0114	
27	27	00F5	0114	
28	28	00F1	0114	
29	29	00F5	0115	
30	30	00EF	0115	
31	31	00F3	0116	
32	32	00F1	0116	
33	33	00F1	0116	
34	34	00F5	0116	
35	35	00F2	0116	
36	36	00F0	0116	
37	37	00EC	0116	
38	38	00F4	0115	
39	39	00F3	0115	
40	40	00F5	0115	
41	41	00F3	0114	
42	42	00F7	0114	
43	43	00F2	0113	
44	44	00F2	0113	
45	45	00F8	0112	
46	46	00F5	0112	
47	47	00F7	0111	
48	48	00F4	0111	
49	49	00F1	0111	
50	50	00F6	0110	
51	51	00F3	0111	
52	52	00F1	0110	
53	53	00F2	0111	
54	54	00F4	0111	
55	55	00F4	0111	
56	56	00F8	0111	
57	57	00F7	0111	
58	58	00F7	0111	
59	59	00F2	0112	
60	60	00F3	0112	
61	61	00F7	0112	
62	62	00F5	0113	
63	63	00F3	0113	
64	64	00F2	0114	
65	65	00EE	0113	
66	66	00F4	0114	
67	67	00F2	0114	
68	68	00F3	0114	
69	69	00EE	0114	
70	70	00F0	0114	
71	71	00F3	0113	
72	72	00F2	0113	
73	73	00F0	0113	
74	74	00F2	0113	
75	75	00F2	0113	
76	76	00F5	0113	
77	77	00F5	0113	
78	78	00F0	0112	
79	79	00F1	0112	
80	80	00F4	0111	
81	81	00F5	0111	
82	82	00F2	0111	
83	83	00F2	0111	
84	84	00F2	0110	
85	85	00ED	0110	
86	86	00F5	0110	
87	87	00F8	0110	
88	88	00F1	0111	
89	89	00F6	0110	
90	90	00F6	0110	
91	91	00F4	0110	
92	92	00F2	0110	
93	93	00F6	0111	
94	94	00F7	0110	
95	95	00F5	0111	
96	96	00F0	0111	
97	97	00F2	0112	
98	98	00F2	0112	
99	99	00F7	0112	
100	100	00F1	0112	
101	101	00F4	0112	
102	102	00F3	0113	
103	103	00F4	0113	
104	104	00F2	0113	
105	105	00F4	0113	
106	106	00F3	0113	
107	107	00EE	0113	
108	108	00F1	0114	
109	109	00F5	0113	
110	110	00F3	0113	
111	111	00F1	0113	
112	112	00F6	0113	
113	113	00F4	0113	
114	114	00EF	0112	
115	115	00F2	0112	
116	116	00F1	0112	
117	117	00F2	0112	
118	118	00EF	0112	
119	119	00F6	0112	
120	120	00F3	0112	
121	121	00F3	0112	
122	122	00F2	0111	
123	123	00F5	0111	
124	124	00F3	0111	
125	125	00F4	0111	
126	126	00F2	0111	
127	127	00F4	0111	
128	128	00F7	0110	
129	129	00F4	0111	
130	130	00F6	0111	
131	131	00F8	0111	
132	132	00FA	0111	
133	133	00F5	0111	
134	134	00F4	0112	
135	135	00F8	0112	
136	136	00FB	0111	
137	137	00F5	0112	
138	138	00F3	0112	
139	139	00F4	0113	
140	140	00F2	0113	
141	141	00F4	0114	
142	142	00F0	0114	
143	143	00F7	0114	
144	144	00F8	0115	
145	145	00F6	0115	
146	146	00F7	0115	
147	147	00F3	0115	
148	148	00F2	0115	
149	149	00F4	0115	
150	150	00EE	0116	
151	151	00F4	0116	
152	152	00F5	0116	
153	153	00F5	0116	
154	154	00F7	0115	
155	155	00F5	0115	
156	156	00FB	0114	
157	157	00EF	0114	
158	158	00F7	0114	
159	159	00F0	0113	
160	160	00F0	0113	
161	161	00F6	0113	
162	162	00F2	0113	
163	163	00F5	0113	
164	164	00F4	0113	
165	165	00F5	0114	
166	166	00F5	0113	
167	167	00F7	0113	
168	168	00EF	0112	
169	169	00F7	0112	
170	170	00F1	0112	
171	171	00F2	0112	
172	172	00F5	0113	
173	173	00F3	0113	
174	174	00F0	0113	
175	175	00F7	0113	
176	176	00F6	0113	
177	177	00F0	0113	
178	178	00F3	0113	
179	179	00F4	0112	
180	180	00F3	0112	
181	181	00F3	0112	
182	182	00F0	0112	
183	183	00F6	0113	
184	184	00F2	0112	
185	185	00F3	0113	
186	186	00F7	0113	
187	187	00F4	0113	
188	188	00F6	0112	
189	189	00F4	0112	
190	190	00F5	0112	
191	191	00F7	0112	
192	192	00F7	0112	
193	193	00F6	0112	
194	194	00F0	0112	
195	195	00F9	0112	
196	196	00F4	0113	
197	197	00F0	0113	
198	198	00F2	0113	
199	199	00F1	0113	
200	200	00F4	0113	
201	201	00F6	0113	
202	202	00F2	0113	
203	203	00F6	0113	
204	204	00F4	0113	
205	205	00F3	0113	
206	206	00F5	0113	
207	207	00F2	0114	
208	208	00F2	0114	
209	209	00ED	0114	
210	210	00F3	0114	
211	211	00F3	0113	
212	212	00F2	0114	
213	213	00F6	0113	
214	214	00F6	0113	
215	215	00F9	0112	
216	216	00F1	0112	
217	217	00F5	0112	
218	218	00F6	0112	
219	219	00F5	0112	
220	220	00F4	0112	
221	221	00F7	0112	
222	222	00F4	0112	
223	223	00F8	0112	
224	224	00F4	0112	
225	225	00FC	0112	
226	226	00F2	0112	
227	227	00F6	0112	
228	228	00F5	0112	
229	229	00F5	0112	
230	230	00F5	0113	
231	231	00F8	0113	
232	232	00F4	0114	
233	233	00F4	0114	
234	234	00F5	0114	
235	235	00F3	0115	
236	236	00F3	0115	
237	237	00F8	0115	
238	238	00F6	0115	
239	239	00F2	0115	
240	240	00F8	0115	
241	241	00F5	0115	
242	242	00F4	0115	
243	243	00F7	0115	
244	244	00F1	0115	
245	245	00F2	0115	
246	246	00F1	0115	
247	247	00F2	0115	
248	248	00F2	0115	
249	249	00F4	0115	
250	250	00F0	0114	
251	251	00F3	0114	
252	252	00F4	0114	
253	253	00F6	0113	
254	254	00F7	0113	
255	255	00F4	0113	
256	256	00F3	0113	
257	257	00F5	0113	
258	258	00F2	0113	
259	259	00EF	0113	
260	260	00F4	0112	
261	261	00F8	0112	
262	262	00F4	0112	
263	263	00F4	0112	
264	264	00F9	0112	
265	265	00FC	0112	
266	266	00F5	0111	
267	267	00F0	0112	
268	268	00F3	0112	
269	269	00F0	0112	
270	270	00F6	0112	
271	271	00F5	0113	
272	272	00F3	0113	
273	273	00F3	0113	
274	274	00F6	0113	
275	275	00F4	0113	
276	276	00F2	0113	
277	277	00EF	0113	
278	278	00EF	0113	
279	279	00F2	0113	
280	280	00F4	0113	
281	281	00EF	0114	
282	282	00F1	0114	
283	283	00F4	0114	
284	284	00F4	0114	
285	285	00F2	0113	
286	286	00F3	0113	
287	287	00F1	0113	
288	288	00F5	0112	
289	289	00F8	0111	
290	290	00FB	0111	
291	291	00F4	0111	
292	292	00F1	0111	
293	293	00F5	0111	
294	294	00F4	0111	
295	295	00F4	0111	
296	296	00F8	0111	
297	297	00F4	0111	
298	298	00F5	0111	
299	299	00F7	0111	
300	300	00F2	0111	
301	301	00F2	0112	
302	302	00F5	0112	
303	303	00F4	0112	
304	304	00F5	0113	
305	305	00F4	0114	
306	306	00F2	0114	
307	307	00F2	0114	
308	308	00F0	0114	
309	309	00F1	0114	
310	310	00F3	0114	
311	311	00F1	0115	
312	312	00F8	0114	
313	313	00F1	0114	
314	314	00F2	0114	
315	315	00F7	0114	
316	316	00F3	0114	
317	317	00F4	0113	
318	318	00F7	0113	
319	319	00F5	0113	
320	320	00F7	0113	
321	321	00F4	0112	
322	322	00F5	0112	
323	323	00F4	0112	
324	324	00F8	0112	
325	325	00F4	0112	
326	326	00F1	0112	
327	327	00F1	0112	
328	328	00F8	0112	
329	329	00F7	0112	
330	330	00F7	0113	
331	331	00F4	0113	
332	332	00F4	0113	
333	333	00F2	0113	
334	334	00F4	0113	
335	335	00F7	0113	
336	336	00F3	0114	
337	337	00F6	0114	
338	338	00EF	0114	
339	339	00F2	0114	
340	340	00F6	0114	
341	341	00F4	0114	
342	342	00F7	0114	
343	343	00EF	0114	
344	344	00F4	0114	
345	345	00FA	0114	
346	346	00F4	0114	
347	347	00F9	0114	
348	348	00F5	0114	
349	349	00F8	0113	
350	350	00F0	0114	
351	351	00F4	0113	
352	352	00F6	0113	
353	353	00F3	0113	
354	354	00F1	0113	
355	355	00F8	0113	
356	356	00F3	0113	
357	357	00F4	0113	
358	358	00F2	0113	
359	359	00F3	0113	
360	360	00F5	0113	
361	361	00F6	0114	
362	362	00F1	0114	
363	363	00F9	0114	
364	364	00F5	0114	
365	365	00F8	0113	
366	366	00F0	0114	
367	367	00F2	0114	
368	368	00F3	0113	
369	369	00F8	0114	
370	370	00F4	0113	
371	371	00F4	0114	
372	372	00F2	0113	
373	373	00F1	0113	
374	374	00F7	0113	
375	375	00EF	0113	
376	376	00F1	0113	
377	377	00F2	0114	
378	378	00F7	0113	
379	379	00F5	0113	
380	380	00F7	0113	
381	381	00F6	0113	
382	382	00F9	0113	
383	383	00F3	0112	
384	384	00F4	0112	
385	385	00F5	0113	
386	386	00F4	0113	
387	387	00F3	0113	
388	388	00F4	0113	
389	389	00F3	0113	
390	390	00F3	0113	
391	391	00F6	0113	
392	392	00F9	0113	
393	393	00F6	0113	
394	394	00F6	0113	
395	395	00F4	0113	
396	396	00F1	0113	
397	397	00EF	0113	
398	398	00F4	0114	
399	399	00F5	0114	
400	400	00F2	0114	
401	401	00F0	0114	
402	402	00F0	0114	
403	403	00F2	0114	
404	404	00F4	0114	
405	405	00EE	0114	
406	406	00F3	0113	
407	407	00F4	0113	
408	408	00F4	0113	
409	409	00F5	0113	
410	410	00F2	0113	
411	411	00F0	0113	
412	412	00EE	0112	
413	413	00F1	0112	
414	414	00F2	0112	
415	415	00F4	0112	
416	416	00F5	0111	
417	417	00F8	0110	
418	418	00F8	0110	
419	419	00F7	0110	
420	420	00F5	0110	
421	421	00F4	0110	
422	422	00F7	0110	
423	423	00F4	0110	
424	424	00F7	0111	
425	425	00F2	0111	
426	426	00F3	0111	
427	427	00F2	0111	
428	428	00F6	0112	
429	429	00F1	0112	
430	430	00EF	0112	
431	431	00F2	0112	
432	432	00EF	0113	
433	433	00F2	0113	
434	434	00F2	0113	
435	435	00F7	0114	
436	436	00F3	0114	
437	437	00F4	0114	
438	438	00F2	0114	
439	439	00FB	0114	
440	440	00F0	0114	
441	441	00F4	0113	
442	442	00F3	0113	
443	443	00F5	0113	
444	444	00F1	0113	
445	445	00EF	0112	
446	446	0109	0112	
447	447	039A	0112	
448	448	0967	0112	
449	449	0E6C	0112	
450	450	115C	0112	
451	451	12E3	0111	
452	452	1378	0112	
453	453	1364	012F	
454	454	12F0	018F	
455	455	124B	022F	
456	456	116E	02FC	
457	457	106C	03EB	
458	458	0F58	04F1	
459	459	0E43	060A	
460	460	0D46	0730	
461	461	0C4A	0860	
462	462	0B4D	0999	
463	463	0A71	0AD7	
464	464	099A	0C18	
465	465	08D2	0D5D	
466	466	0816	0EA3	
467	467	0781	0FEB	
468	468	070A	1134	
469	469	0682	127B	
470	470	05FD	138A	
471	471	0576	1415	
472	472	0509	141F	
473	473	04A9	13CF	
474	474	044A	133E	
475	475	0402	127C	
476	476	03C5	1197	
477	477	0381	1097	
478	478	0343	0F80	
479	479	030A	0E5A	
480	480	02E8	0D28	
481	481	02C8	0BF0	
482	482	0295	0AB3	
483	483	026E	0971	
484	484	024C	082C	
485	485	0222	06E5	
486	486	01FF	059F	
487	487	01E7	0475	
488	488	01D4	038D	
489	489	01C8	02E5	
490	490	01B1	0269	
491	491	019D	020B	
492	492	0198	01C5	
493	493	018B	0190	
494	494	017E	016B	
495	495	016F	0152	
496	496	0166	0140	
497	497	0159	0134	
498	498	015A	012C	
499	499	0150	0125	
500	500	0144	0121	
501	501	0144	011F	
502	502	013B	011E	
503	503	013A	011C	
504	504	0135	011A	
505	505	0137	0118	
506	506	013C	0116	
507	507	013A	0115	
508	508	0132	0117	
509	509	0129	0119	
510	510	0121	011C	
511	511	011E	011D	
512	512	011C	011F	
513	513	0119	0120	
514	514	011A	0122	
515	515	0118	0123	
516	516	0117	0124	
517	517	0117	0125	
518	518	011B	0126	
519	519	0119	0126	
520	520	0114	0128	
521	521	0117	012A	
522	522	0115	012B	
523	523	0110	012D	
524	524	0114	012E	
525	525	0110	012F	
526	526	0107	012F	
527	527	010B	0130	
528	528	0107	0130	
529	529	0105	012F	
530	530	010C	012E	
531	531	0109	012D	
532	532	010A	012C	
533	533	0103	012C	
534	534	0106	012C	
535	535	0107	012C	
536	536	0105	012C	
537	537	0106	012B	
538	538	00FD	012B	
539	539	0100	012B	
540	540	00FD	012A	
541	541	00FF	0129	
542	542	00FE	0128	
543	543	0106	0127	
544	544	0101	0126	
545	545	00FF	0125	
546	546	0100	0124	
547	547	0101	0123	
548	548	00FC	0123	
549	549	00F8	0123	
550	550	00F9	0122	
551	551	00F6	0122	
552	552	00FC	0121	
553	553	00FD	0120	
554	554	0102	011F	
555	555	0100	011E	
556	556	0100	011E	
557	557	0101	011D	
558	558	0104	011C	
559	559	00FD	011C	
560	560	00FF	011B	
561	561	00FD	011C	
562	562	00F9	011C	
563	563	00F8	011C	
564	564	00F6	011D	
565	565	00FA	011D	
566	566	00F8	011C	
567	567	00FE	011C	
568	568	00FF	011C	
569	569	00FD	011B	
570	570	00F7	011B	
571	571	00FF	011B	
572	572	00FA	011B	
573	573	00F8	011C	
574	574	00F8	011C	
575	575	00FA	011D	
576	576	00FD	011D	
577	577	00F6	011D	
578	578	00FB	011C	
579	579	00FD	011C	
580	580	00F7	011B	
581	581	00F7	011A	
582	582	00F6	011A	
583	583	00F4	011A	
584	584	00F3	011A	
585	585	00F3	011A	
586	586	00F6	011A	
587	587	00F2	011A	
588	588	00F5	011A	
589	589	00F1	011A	
590	590	00F4	0119	
591	591	00F6	0118	
592	592	00F4	0117	
593	593	00F9	0117	
594	594	00F3	0116	
595	595	00F7	0115	
596	596	00F3	0115	
597	597	00F4	0115	
598	598	00FC	0115	
599	599	00FB	0115	
600	600	00F8	0115	
601	601	00FE	0114	
602	602	00FD	0113	
603	603	00F8	0113	
604	604	00F7	0113	
605	605	00F5	0113	
606	606	00F4	0113	
607	607	00F4	0113	
608	608	00F5	0114	
609	609	00F7	0114	
610	610	00FC	0115	
611	611	00F6	0115	
612	612	00F0	0115	
613	613	00F5	0116	
614	614	00F2	0116	
615	615	00F3	0116	
616	616	00F7	0117	
617	617	00F1	0117	
618	618	00F9	0117	
619	619	00F1	0118	
620	620	00F8	0118	
621	621	00EF	0117	
622	622	00F5	0117	
623	623	00F4	0117	
624	624	00F7	0116	
625	625	00F5	0115	
626	626	00F7	0115	
627	627	00F9	0114	
628	628	00F7	0114	
629	629	00F5	0114	
630	630	00F5	0114	
631	631	00F7	0114	
632	632	00F4	0113	
633	633	00F6	0113	
634	634	00F4	0113	
635	635	00F9	0113	
636	636	00F5	0113	
637	637	00FC	0113	
638	638	00F4	0113	
639	639	00F3	0113	
640	640	00F9	0114	
641	641	00F5	0114	
642	642	00F6	0114	
643	643	00F2	0115	
644	644	00EF	0115	
645	645	00F7	0115	
646	646	00F6	0116	
647	647	00F6	0115	
648	648	00F3	0116	
649	649	00F2	0116	
650	650	00F1	0115	
651	651	00EF	0115	
652	652	00F1	0115	
653	653	00F0	0115	
654	654	00F1	0115	
655	655	00F0	0115	
656	656	00F7	0115	
657	657	00EE	0114	
658	658	00F0	0114	
659	659	00F4	0113	
660	660	00F3	0113	
661	661	00F4	0112	
662	662	00F3	0112	
663	663	00F0	0111	
664	664	00F0	0111	
665	665	00EF	0110	
666	666	00F4	0110	
667	667	00F0	0111	
668	668	00F0	0110	
669	669	00EF	0110	
670	670	00F3	010F	
671	671	00F5	010F	
672	672	00F0	010F	
673	673	00F4	010F	
674	674	00F2	010F	
675	675	00F5	010F	
676	676	00F2	010F	
677	677	00F1	0110	
678	678	00F9	0110	
679	679	00F8	010F	
680	680	00F3	0110	
681	681	00F6	0110	
682	682	00F0	0110	
683	683	00F2	0110	
684	684	00ED	0110	
685	685	00F2	0110	
686	686	00F2	0111	
687	687	00EF	0111	
688	688	00F0	0112	
689	689	00F3	0112	
690	690	00EF	0112	
691	691	00F3	0112	
692	692	00F0	0112	
693	693	00EF	0112	
694	694	00F1	0112	
695	695	00F5	0112	
696	696	00F3	0112	
697	697	00F2	0112	
698	698	00EE	0111	
699	699	00F1	0111	
700	700	00F0	0111	
701	701	00F1	0111	
702	702	00EC	0111	
703	703	00ED	0110	
704	704	00F3	0110	
705	705	00F1	010F	
706	706	00F2	010F	
707	707	00F1	0110	
708	708	00F4	010F	
709	709	00F3	010F	
710	710	00F2	010F	
711	711	00F2	010F	
712	712	00F5	010F	
713	713	00F1	010F	
714	714	00F1	010F	
715	715	00F8	010F	
716	716	00F4	010F	
717	717	00F1	010F	
718	718	00F0	010F	
719	719	00EE	010F	
720	720	00EF	010F	
721	721	00EE	0110	
722	722	00F3	0110	
723	723	00F2	0110	
724	724	00F2	0110	
725	725	00F4	0111	
726	726	00EE	0111	
727	727	00F1	0111	
728	728	00F0	0111	
729	729	00F2	0111	
730	730	00EF	0111	
731	731	00F0	0111	
732	732	00F4	0111	
733	733	00F0	0111	
734	734	00EF	0111	
735	735	00EE	0110	
736	736	00EF	0110	
737	737	00F0	0110	
738	738	00EF	0110	
739	739	00F4	010F	
740	740	00F1	010F	
741	741	00F2	010F	
742	742	00F1	010F	
743	743	00EC	010F	
744	744	00EF	010F	
745	745	00EE	010F	
746	746	00EF	010F	
747	747	00F1	010F	
748	748	00EE	010E	
749	749	00ED	010E	
750	750	00EF	010E	
751	751	00F5	010E	
752	752	00F2	010E	
753	753	00ED	010E	
754	754	00F2	010E	
755	755	00F6	010E	
756	756	00F3	010E	
757	757	00F3	010E	
758	758	00F1	010E	
759	759	00EF	010E	
760	760	00F1	010E	
761	761	00EF	010E	
762	762	00F1	010E	
763	763	00F2	010E	
764	764	00F2	010E	
765	765	00F0	010E	
766	766	00ED	010F	
767	767	00EF	010F	
768	768	00F5	010F	
769	769	00EF	010F	
770	770	00F3	010F	
771	771	00F2	0110	
772	772	00F2	0110	
773	773	00F1	0110	
774	774	00EF	0110	
775	775	00EE	0110	
776	776	00F1	0110	
777	777	00F1	0110	
778	778	00EF	0110	
779	779	00EF	0110	
780	780	00EF	0110	
781	781	00F0	0110	
782	782	00F4	0110	
783	783	00FA	0110	
784	784	00EF	0110	
785	785	00F2	010F	
786	786	00F4	010F	
787	787	00EC	010F	
788	788	00EF	010F	
789	789	00EE	010F	
790	790	00F2	010F	
791	791	00F0	010F	
792	792	00EF	0110	
793	793	00F3	010F	
794	794	00F2	010F	
795	795	00F1	010F	
796	796	00F2	010F	
797	797	00F3	010F	
798	798	00F2	010F	
799	799	00F2	010F	
800	800	00EF	010F	
801	801	00EF	0110	
802	802	00EF	0110	
803	803	00F0	0110	
804	804	00F0	0110	
805	805	00EB	0110	
806	806	00EC	010F	
807	807	00F0	010F	
808	808	00EF	010F	
809	809	00EF	010F	
810	810	00F1	010F	
811	811	00EC	010F	
812	812	00EF	010F	
813	813	00EB	010F	
814	814	00EF	010F	
815	815	00F2	010F	
816	816	00F0	010F	
817	817	00EA	010E	
818	818	00EE	010E	
819	819	00F4	010D	
820	820	00F5	010D	
821	821	00F0	010D	
822	822	00EE	010D	
823	823	00F0	010D	
824	824	00EE	010C	
825	825	00EF	010D	
826	826	00F4	010D	
827	827	00F0	010D	
828	828	00F0	010D	
829	829	00F1	010D	
830	830	00F3	010D	
831	831	00F2	010D	
832	832	00F4	010D	
833	833	00F0	010D	
834	834	00F3	010D	
835	835	00ED	010E	
836	836	00F1	010E	
837	837	00EE	010F	
838	838	00ED	010F	
839	839	00F2	010F	
840	840	00F2	0110	
841	841	00F1	0110	
842	842	00F0	0110	
843	843	00EC	010F	
844	844	00EF	010F	
845	845	00F1	0110	
846	846	00F0	0110	
847	847	00F2	0110	
848	848	00F0	0110	
849	849	00EE	0110	
850	850	00F0	0110	
851	851	00F0	0110	
852	852	00F1	010F	
853	853	00F1	010F	
854	854	00F0	010F	
855	855	00EC	010F	
856	856	00F0	010E	
857	857	00F0	010E	
858	858	00F0	010E	
859	859	00F0	010E	
860	860	00EE	010E	
861	861	00F0	010E	
862	862	00ED	010E	
863	863	00F0	010E	
864	864	00F0	010E	
865	865	00EF	010E	
866	866	00F0	010E	
867	867	00F2	010E	
868	868	00F2	010E	
869	869	00F6	010E	
870	870	00F4	010E	
871	871	00EF	010E	
872	872	00F2	010E	
873	873	00F4	010E	
874	874	00F5	010E	
875	875	00F6	010E	
876	876	00EF	010E	
877	877	00F2	010E	
878	878	00F1	010F	
879	879	00F3	010F	
880	880	00F2	010F	
881	881	00F1	0110	
882	882	00F3	0110	
883	883	00F0	0110	
884	884	00F2	0110	
885	885	00F1	0111	
886	886	00F0	0111	
887	887	00F0	0111	
888	888	00F4	0112	
889	889	00F2	0112	
890	890	00EC	0112	
891	891	00EF	0112	
892	892	00F1	0111	
893	893	00F1	0111	
894	894	00F4	0112	
895	895	00F3	0112	
896	896	00F1	0111	
897	897	00F2	0111	
898	898	00F0	0110	
899	899	00EE	0110	
900	900	00ED	0110	
901	901	00F1	0110	
902	902	00ED	0110	
903	903	00ED	0110	
904	904	00EE	0110	
905	905	00ED	010F	
906	906	00F2	010F	
907	907	00F0	010F	
908	908	00F0	010F	
909	909	00F1	010F	
910	910	00EF	010E	
911	911	00F7	010E	
912	912	00F7	010E	
913	913	00F2	010E	
914	914	00F1	010E	
915	915	00F0	010E	
916	916	00F0	010E	
917	917	00EF	010E	
918	918	00F1	010E	
919	919	00F1	010E	
920	920	00EE	010E	
921	921	00EF	010E	
922	922	00EF	010E	
923	923	00F1	010E	
924	924	00F0	010E	
925	925	00F4	010F	
926	926	00F2	010F	
927	927	00F2	010F	
928	928	00F1	0110	
929	929	00F4	0110	
930	930	00F4	0110	
931	931	00F4	0110	
932	932	00F8	0110	
933	933	00F4	0110	
934	934	00F2	0110	
935	935	00F2	0110	
936	936	00F2	0110	
937	937	00F1	0110	
938	938	00F1	0110	
939	939	00F5	0111	
940	940	00F1	0111	
941	941	00EF	0111	
942	942	00F5	0111	
943	943	00F4	0111	
944	944	00F1	0111	
945	945	00F5	0111	
946	946	00ED	0112	
947	947	00F1	0112	
948	948	00F1	0112	
949	949	00F5	0112	
950	950	00F2	0112	
951	951	00F4	0112	
952	952	00EF	0112	
953	953	00F1	0112	
954	954	00F4	0112	
955	955	00F2	0112	
956	956	00F5	0111	
957	957	00ED	0111	
958	958	00EC	0111	
959	959	00F1	0111	
960	960	00F0	0111	
961	961	00EF	0111	
962	962	00EC	0111	
963	963	00F2	0111	
964	964	00F0	0110	
965	965	00EB	0110	
966	966	00F1	0110	
967	967	00EF	0110	
968	968	00EC	010F	
969	969	00EF	010F	
970	970	00F0	010F	
971	971	00EE	010F	
972	972	00EF	010F	
973	973	00F0	010F	
974	974	00EE	010E	
975	975	00EB	010E	
976	976	00EF	010E	
977	977	00F1	010D	
978	978	00EE	010D	
979	979	00EC	010D	
980	980	00F2	010D	
981	981	00F3	010C	
982	982	00EF	010C	
983	983	00F3	010C	
984	984	00F0	010C	
985	985	00F6	010C	
986	986	00F1	010C	
987	987	00F2	010C	
988	988	00F0	010C	
989	989	00F2	010D	
990	990	00F0	010D	
991	991	00F1	010D	
992	992	00F2	010D	
993	993	00F0	010E	
994	994	00F0	010E	
995	995	00F5	010E	
996	996	00F3	010F	
997	997	00EF	010F	
998	998	00F3	010F	
999	999	00F5	0110	
1000	1000	00F2	0110	
1001	1001	00F7	0110	
1002	1002	00F4	0111	
1003	1003	00EE	0111	
1004	1004	00EE	0111	
1005	1005	00ED	0111	
1006	1006	00F0	0111	
