Sample in Buffer	Sample in Window	adc1_data	adc1_shape
0	0	00F8	0114	
1	1	00F2	0114	
2	2	00F1	0114	
3	3	00F3	0113	
4	4	00F2	0113	
5	5	00F0	0113	
6	6	00F1	0113	
7	7	00EF	0113	
8	8	00F3	0113	
9	9	00F7	0113	
10	10	00F2	0113	
11	11	00F2	0112	
12	12	00F5	0112	
13	13	00F2	0111	
14	14	00F4	0111	
15	15	00F4	0111	
16	16	00F5	0111	
17	17	00EF	0111	
18	18	00F3	0111	
19	19	00F4	0111	
20	20	00F8	0112	
21	21	00F0	0111	
22	22	00F3	0111	
23	23	00F2	0111	
24	24	00F2	0111	
25	25	00F5	0111	
26	26	00F4	0111	
27	27	00F4	0111	
28	28	00F7	0111	
29	29	00F2	0112	
30	30	00F5	0112	
31	31	00F3	0112	
32	32	00F5	0112	
33	33	00F4	0112	
34	34	00F4	0112	
35	35	00F3	0112	
36	36	00F5	0113	
37	37	00F8	0112	
38	38	00F3	0112	
39	39	00F7	0112	
40	40	00F7	0113	
41	41	00F3	0113	
42	42	00F0	0113	
43	43	00F1	0113	
44	44	00F2	0113	
45	45	00F6	0113	
46	46	00F4	0114	
47	47	00F5	0114	
48	48	00F3	0113	
49	49	00F4	0113	
50	50	00F0	0113	
51	51	00F6	0113	
52	52	00F5	0113	
53	53	00F1	0113	
54	54	00F4	0113	
55	55	00F1	0113	
56	56	00F3	0113	
57	57	00EF	0113	
58	58	00F4	0113	
59	59	00F6	0113	
60	60	00F1	0113	
61	61	00F5	0113	
62	62	00F6	0112	
63	63	00F3	0112	
64	64	00F4	0112	
65	65	00F4	0112	
66	66	00F1	0112	
67	67	00F4	0112	
68	68	00F2	0112	
69	69	00F3	0112	
70	70	00F4	0112	
71	71	00F1	0112	
72	72	00F1	0112	
73	73	00F1	0112	
74	74	00F5	0112	
75	75	00F4	0111	
76	76	00F4	0112	
77	77	00F4	0112	
78	78	00F5	0112	
79	79	00F5	0112	
80	80	00F3	0112	
81	81	00F7	0112	
82	82	00F0	0112	
83	83	00F3	0112	
84	84	00F6	0112	
85	85	00F6	0112	
86	86	00F4	0112	
87	87	00F8	0112	
88	88	00F4	0112	
89	89	00F4	0112	
90	90	00F2	0112	
91	91	00F8	0112	
92	92	00F5	0113	
93	93	00F8	0113	
94	94	00F5	0113	
95	95	00F7	0113	
96	96	00FA	0113	
97	97	00F5	0113	
98	98	00F5	0113	
99	99	00F7	0114	
100	100	00F6	0114	
101	101	00F5	0114	
102	102	00F4	0114	
103	103	00F4	0115	
104	104	00F8	0115	
105	105	00F2	0115	
106	106	00F4	0115	
107	107	00EC	0115	
108	108	00EF	0115	
109	109	00EE	0115	
110	110	00F6	0115	
111	111	00EC	0115	
112	112	00EE	0115	
113	113	00F4	0115	
114	114	00F3	0115	
115	115	00F4	0114	
116	116	00F2	0114	
117	117	00F4	0114	
118	118	00F2	0113	
119	119	00F8	0112	
120	120	00F1	0112	
121	121	00F4	0112	
122	122	00EF	0111	
123	123	00F1	0111	
124	124	00F1	0110	
125	125	00F1	0110	
126	126	00F5	0110	
127	127	00F4	0110	
128	128	00F0	010F	
129	129	00F4	010F	
130	130	00EE	010F	
131	131	00F2	010F	
132	132	00F3	0110	
133	133	00F4	0110	
134	134	00F3	0110	
135	135	00F3	0111	
136	136	00F5	0111	
137	137	00F4	0111	
138	138	00F8	0111	
139	139	00F7	0111	
140	140	00F7	0111	
141	141	00F2	0111	
142	142	00F3	0111	
143	143	00F2	0111	
144	144	00F8	0112	
145	145	00F6	0112	
146	146	00F4	0113	
147	147	00F1	0112	
148	148	00F2	0113	
149	149	00F7	0112	
150	150	00F6	0113	
151	151	00F6	0113	
152	152	00F7	0113	
153	153	00F3	0113	
154	154	00F5	0113	
155	155	00F5	0114	
156	156	00F1	0114	
157	157	00F1	0114	
158	158	00EF	0114	
159	159	00F5	0115	
160	160	00F5	0115	
161	161	00F2	0115	
162	162	00F3	0114	
163	163	00F9	0114	
164	164	00F1	0114	
165	165	00F0	0114	
166	166	00F0	0114	
167	167	00F5	0113	
168	168	00F6	0113	
169	169	00F1	0113	
170	170	00F2	0113	
171	171	00F8	0113	
172	172	00F2	0113	
173	173	00F8	0112	
174	174	00F5	0112	
175	175	00F3	0112	
176	176	00F4	0111	
177	177	00F6	0111	
178	178	00F2	0111	
179	179	00F6	0112	
180	180	00F6	0112	
181	181	00F2	0112	
182	182	00F3	0112	
183	183	00F4	0112	
184	184	00F2	0112	
185	185	00F6	0113	
186	186	00F5	0112	
187	187	00F3	0112	
188	188	00F6	0113	
189	189	00F0	0113	
190	190	00F2	0113	
191	191	00F1	0113	
192	192	00F3	0114	
193	193	00F5	0114	
194	194	00F1	0114	
195	195	00F2	0114	
196	196	00F3	0113	
197	197	00F7	0113	
198	198	00F7	0113	
199	199	00F4	0113	
200	200	00F3	0113	
201	201	00EF	0113	
202	202	00F5	0112	
203	203	00F7	0112	
204	204	00F5	0113	
205	205	00FB	0112	
206	206	00F5	0112	
207	207	00F4	0112	
208	208	00F0	0112	
209	209	00F3	0112	
210	210	00F3	0112	
211	211	00F3	0112	
212	212	00F1	0112	
213	213	00F3	0113	
214	214	00F4	0113	
215	215	00F2	0113	
216	216	00F4	0113	
217	217	00F1	0113	
218	218	00F0	0113	
219	219	00F3	0113	
220	220	00EF	0113	
221	221	00F1	0113	
222	222	00F5	0113	
223	223	00F4	0113	
224	224	00F1	0113	
225	225	00F2	0113	
226	226	00F2	0113	
227	227	00F6	0112	
228	228	00F3	0112	
229	229	00F1	0111	
230	230	00F5	0111	
231	231	00F7	0111	
232	232	00F6	0111	
233	233	00EF	0111	
234	234	00F4	0111	
235	235	00F4	0111	
236	236	00F3	0111	
237	237	00F2	0111	
238	238	00F5	0111	
239	239	00F4	0111	
240	240	00F8	0111	
241	241	00F3	0111	
242	242	00F4	0111	
243	243	00F2	0112	
244	244	00F0	0112	
245	245	00F1	0112	
246	246	00F2	0112	
247	247	00F5	0113	
248	248	00F4	0113	
249	249	00F2	0113	
250	250	00F4	0113	
251	251	00F3	0113	
252	252	00F2	0113	
253	253	00F4	0113	
254	254	00F5	0113	
255	255	00F1	0112	
256	256	00F9	0113	
257	257	00F5	0113	
258	258	00F7	0112	
259	259	00F6	0112	
260	260	00F5	0112	
261	261	00F5	0112	
262	262	00F5	0112	
263	263	00F3	0112	
264	264	00F6	0112	
265	265	00EF	0112	
266	266	00F4	0112	
267	267	00F5	0113	
268	268	00F8	0113	
269	269	00F7	0113	
270	270	00FA	0113	
271	271	00F7	0113	
272	272	00F4	0113	
273	273	00F4	0113	
274	274	00F0	0114	
275	275	00F1	0114	
276	276	00F2	0114	
277	277	00EE	0115	
278	278	00F0	0115	
279	279	00FA	0115	
280	280	00F3	0115	
281	281	00F3	0114	
282	282	00F2	0114	
283	283	00F4	0114	
284	284	00F9	0113	
285	285	00F0	0113	
286	286	00FA	0113	
287	287	00F3	0113	
288	288	00F1	0113	
289	289	00F6	0113	
290	290	00EF	0113	
291	291	00F1	0113	
292	292	00F4	0113	
293	293	00EE	0112	
294	294	00F3	0112	
295	295	00F2	0111	
296	296	00EF	0111	
297	297	00F1	0111	
298	298	00F0	0112	
299	299	00F3	0112	
300	300	00F2	0112	
301	301	00F1	0112	
302	302	00F3	0112	
303	303	00F9	0111	
304	304	00F4	0111	
305	305	00ED	0111	
306	306	00F4	0111	
307	307	00F2	0110	
308	308	00F4	0111	
309	309	00F7	0110	
310	310	00F1	0111	
311	311	00F3	0111	
312	312	00F6	0110	
313	313	00F2	0111	
314	314	00F7	0111	
315	315	00F6	0111	
316	316	00F6	0111	
317	317	00F3	0111	
318	318	00F4	0111	
319	319	00F4	0111	
320	320	00F9	0111	
321	321	00F9	0112	
322	322	00F9	0112	
323	323	00F2	0112	
324	324	00F3	0113	
325	325	00F3	0113	
326	326	00F3	0113	
327	327	00F4	0113	
328	328	00EF	0114	
329	329	00F2	0114	
330	330	00F7	0115	
331	331	00F5	0115	
332	332	00F5	0114	
333	333	00F3	0115	
334	334	00F5	0115	
335	335	00F5	0114	
336	336	00F9	0115	
337	337	00F2	0114	
338	338	00F5	0114	
339	339	00EF	0114	
340	340	00F6	0114	
341	341	00F2	0114	
342	342	00F3	0114	
343	343	00F9	0114	
344	344	00F3	0114	
345	345	00F4	0113	
346	346	00F3	0113	
347	347	00F5	0113	
348	348	00F6	0113	
349	349	00F3	0113	
350	350	00F0	0113	
351	351	00F0	0113	
352	352	00F2	0113	
353	353	00F9	0113	
354	354	00F2	0113	
355	355	00F3	0113	
356	356	00F1	0113	
357	357	00F4	0113	
358	358	00F5	0112	
359	359	00F8	0112	
360	360	00F4	0112	
361	361	00FC	0112	
362	362	0238	0113	
363	363	0692	0113	
364	364	0B55	0113	
365	365	0EB6	0113	
366	366	10A9	0113	
367	367	11CA	0113	
368	368	1249	0121	
369	369	125B	0160	
370	370	1222	01D9	
371	371	11A5	0281	
372	372	111C	034D	
373	373	1071	0435	
374	374	0FAA	0534	
375	375	0ECD	0645	
376	376	0DE3	0764	
377	377	0D10	088F	
378	378	0C54	09C5	
379	379	0B8E	0B04	
380	380	0ACA	0C4A	
381	381	0A13	0D94	
382	382	095B	0EE3	
383	383	08B1	1035	
384	384	080E	118B	
385	385	077A	12C9	
386	386	06FB	13A6	
387	387	0672	1412	
388	388	05F3	141F	
389	389	0586	13E8	
390	390	052E	1378	
391	391	04DE	12DD	
392	392	048C	121F	
393	393	044A	1143	
394	394	040A	104F	
395	395	03DA	0F46	
396	396	03B0	0E2C	
397	397	0380	0D05	
398	398	0359	0BD5	
399	399	0335	0A9D	
400	400	0306	095E	
401	401	02E1	0819	
402	402	02B4	06DC	
403	403	029F	05CD	
404	404	0280	04F5	
405	405	0268	044B	
406	406	0253	03C2	
407	407	0241	0354	
408	408	022F	02FB	
409	409	0218	02B2	
410	410	0202	0279	
411	411	01E2	024C	
412	412	01CF	022A	
413	413	01C4	0210	
414	414	01B6	01FB	
415	415	01A9	01EB	
416	416	01A7	01DE	
417	417	019F	01D3	
418	418	0190	01CA	
419	419	018C	01C2	
420	420	0183	01BB	
421	421	0177	01B5	
422	422	016F	01AF	
423	423	0168	01AA	
424	424	015B	01A4	
425	425	0154	01A0	
426	426	0156	019B	
427	427	0156	0196	
428	428	0154	0190	
429	429	0152	0189	
430	430	0150	0182	
431	431	0144	017B	
432	432	013F	0174	
433	433	0142	016E	
434	434	013D	0169	
435	435	0144	0166	
436	436	0140	0163	
437	437	013E	0160	
438	438	013F	015E	
439	439	013D	015C	
440	440	0139	0159	
441	441	0144	0157	
442	442	013A	0155	
443	443	0134	0153	
444	444	012C	0152	
445	445	0128	0151	
446	446	0124	0151	
447	447	0121	0152	
448	448	0123	0153	
449	449	011B	0154	
450	450	011D	0154	
451	451	0122	0153	
452	452	011B	0152	
453	453	0120	0150	
454	454	011E	0150	
455	455	0120	014F	
456	456	011E	014E	
457	457	011C	014E	
458	458	011A	014D	
459	459	0117	014C	
460	460	011A	014A	
461	461	011B	0149	
462	462	0117	0147	
463	463	0115	0146	
464	464	010E	0143	
465	465	0110	0140	
466	466	0114	013E	
467	467	0113	013C	
468	468	010F	013B	
469	469	0104	013A	
470	470	0110	013A	
471	471	0116	0138	
472	472	0116	0138	
473	473	0117	0137	
474	474	0111	0136	
475	475	0115	0135	
476	476	0114	0134	
477	477	010F	0133	
478	478	010A	0133	
479	479	010B	0133	
480	480	0104	0132	
481	481	0108	0133	
482	482	0106	0133	
483	483	0102	0133	
484	484	00FE	0132	
485	485	0106	0131	
486	486	010C	0130	
487	487	0106	0130	
488	488	0107	0130	
489	489	0105	012E	
490	490	0109	012D	
491	491	0107	012D	
492	492	0106	012D	
493	493	0106	012D	
494	494	0104	012C	
495	495	0105	012B	
496	496	0102	012A	
497	497	0103	0129	
498	498	0100	0128	
499	499	0102	0127	
500	500	0105	0126	
501	501	0101	0126	
502	502	00FF	0125	
503	503	0100	0125	
504	504	0101	0124	
505	505	00FE	0124	
506	506	0101	0124	
507	507	0105	0124	
508	508	0100	0124	
509	509	00FD	0123	
510	510	0100	0122	
511	511	0106	0122	
512	512	010A	0122	
513	513	010C	0122	
514	514	010D	0122	
515	515	010C	0121	
516	516	010C	0121	
517	517	0103	0122	
518	518	0106	0122	
519	519	0101	0122	
520	520	0106	0122	
521	521	00FE	0123	
522	522	0100	0124	
523	523	00FD	0123	
524	524	00FE	0123	
525	525	0100	0124	
526	526	0101	0125	
527	527	0100	0125	
528	528	0103	0125	
529	529	0102	0125	
530	530	00FF	0125	
531	531	00FD	0126	
532	532	00F9	0126	
533	533	00F7	0127	
534	534	00FA	0127	
535	535	00FB	0127	
536	536	0100	0126	
537	537	00FF	0125	
538	538	00FE	0123	
539	539	00FE	0122	
540	540	00FE	0121	
541	541	0101	0120	
542	542	00FA	0120	
543	543	00FC	011F	
544	544	00FB	011E	
545	545	00F8	011E	
546	546	00F8	011D	
547	547	00F5	011D	
548	548	00F4	011D	
549	549	00FA	011C	
550	550	00FB	011B	
551	551	00FA	011A	
552	552	00F6	011A	
553	553	00F6	0119	
554	554	00F3	0119	
555	555	00F8	011A	
556	556	00F0	011A	
557	557	00F4	011A	
558	558	00EF	011A	
559	559	00F5	011A	
560	560	00F3	0119	
561	561	00F3	0119	
562	562	00F7	0118	
563	563	00F7	0117	
564	564	00F9	0116	
565	565	00FE	0115	
566	566	00FB	0115	
567	567	00FE	0114	
568	568	00FD	0114	
569	569	00FC	0114	
570	570	00F7	0114	
571	571	00FB	0114	
572	572	00F5	0114	
573	573	00F5	0114	
574	574	00F9	0114	
575	575	00FA	0114	
576	576	00F7	0114	
577	577	00F8	0115	
578	578	00F3	0115	
579	579	00F7	0115	
580	580	00F2	0116	
581	581	00F0	0117	
582	582	00F3	0117	
583	583	00F2	0118	
584	584	00F5	0119	
585	585	00F4	0119	
586	586	00F2	0119	
587	587	00EE	0119	
588	588	00F4	0118	
589	589	00F4	0118	
590	590	00EE	0117	
591	591	00F3	0117	
592	592	00F3	0116	
593	593	00F4	0115	
594	594	00F7	0115	
595	595	00F4	0115	
596	596	00F5	0114	
597	597	00F4	0113	
598	598	00FA	0112	
599	599	00F5	0111	
600	600	00F7	0111	
601	601	00F2	0110	
602	602	00F5	0110	
603	603	00FB	0110	
604	604	00F3	0110	
605	605	00F8	0111	
606	606	00F7	0111	
607	607	00F1	0111	
608	608	00F8	0111	
609	609	00F2	0112	
610	610	00F5	0112	
611	611	00ED	0113	
612	612	00ED	0113	
613	613	00F0	0114	
614	614	00F1	0114	
615	615	00F5	0115	
616	616	00F4	0115	
617	617	00F2	0115	
618	618	00F0	0114	
619	619	00F9	0114	
620	620	00F3	0114	
621	621	00F6	0114	
622	622	00F3	0114	
623	623	00EF	0113	
624	624	00F1	0113	
625	625	00F3	0113	
626	626	00F2	0113	
627	627	00F4	0112	
628	628	00F3	0112	
629	629	00F4	0111	
630	630	00F0	0111	
631	631	00F5	0110	
632	632	00F6	0110	
633	633	00F2	0110	
634	634	00F3	0110	
635	635	00F7	0111	
636	636	00F3	0111	
637	637	00F6	0111	
638	638	00F3	0111	
639	639	00F2	0111	
640	640	00F4	0111	
641	641	00F3	0112	
642	642	00F1	0111	
643	643	00F1	0112	
644	644	00F4	0112	
645	645	00F2	0112	
646	646	00EF	0112	
647	647	00F0	0112	
648	648	00F3	0113	
649	649	00EF	0113	
650	650	00F2	0113	
651	651	00EF	0113	
652	652	00F3	0112	
653	653	00ED	0112	
654	654	00F0	0112	
655	655	00EE	0112	
656	656	00EF	0112	
657	657	00EE	0111	
658	658	00F1	0111	
659	659	00F3	0111	
660	660	00F6	0110	
661	661	00F3	0110	
662	662	00F6	0110	
663	663	00F4	010F	
664	664	00F2	010F	
665	665	00F3	010F	
666	666	00F3	010F	
667	667	00F5	010F	
668	668	00F0	010F	
669	669	00F1	010F	
670	670	00EF	010F	
671	671	00F2	010F	
672	672	00F3	010F	
673	673	00F3	010F	
674	674	00F6	010F	
675	675	00F2	0110	
676	676	00F1	0110	
677	677	00F3	0110	
678	678	00F4	0111	
679	679	00F9	0111	
680	680	00EF	0112	
681	681	00EC	0112	
682	682	00F2	0112	
683	683	00F2	0112	
684	684	00EF	0112	
685	685	00EF	0112	
686	686	00F0	0112	
687	687	00F5	0112	
688	688	00F3	0112	
689	689	00F5	0112	
690	690	00F1	0111	
691	691	00F1	0111	
692	692	00F3	0111	
693	693	00F3	0111	
694	694	00F6	0111	
695	695	00F2	0111	
696	696	00F7	0111	
697	697	00F3	0110	
698	698	00F0	0110	
699	699	00F3	0110	
700	700	00F5	0111	
701	701	00F6	0110	
702	702	00F4	0110	
703	703	00F4	0110	
704	704	00F2	0111	
705	705	00EE	0111	
706	706	00F4	0111	
707	707	00F7	0112	
708	708	00F4	0112	
709	709	00F3	0112	
710	710	00F5	0112	
711	711	00F4	0112	
712	712	00F1	0112	
713	713	00F2	0112	
714	714	00F0	0113	
715	715	00EF	0113	
716	716	00F3	0113	
717	717	00F2	0113	
718	718	00F1	0113	
719	719	00EF	0113	
720	720	00F4	0113	
721	721	00F3	0113	
722	722	00F3	0113	
723	723	00F1	0112	
724	724	00F1	0112	
725	725	00F1	0111	
726	726	00F4	0111	
727	727	00EE	0111	
728	728	00F6	0112	
729	729	00F1	0111	
730	730	00F1	0111	
731	731	00F4	0110	
732	732	00F2	0110	
733	733	00EE	0110	
734	734	00F1	0110	
735	735	00F4	0110	
736	736	00F2	0110	
737	737	00F8	0110	
738	738	00EF	0110	
739	739	00F1	0110	
740	740	00F0	0110	
741	741	00F0	0110	
742	742	00F2	0110	
743	743	00F2	0111	
744	744	00EF	0110	
745	745	00F0	0110	
746	746	00F4	0110	
747	747	00EF	0110	
748	748	00F0	0110	
749	749	00EE	0110	
750	750	00EE	0111	
751	751	00F2	0110	
752	752	00F0	0110	
753	753	00F7	0110	
754	754	00F3	0110	
755	755	00F2	0110	
756	756	00F2	0110	
757	757	00F1	0110	
758	758	00F7	0110	
759	759	00F9	0110	
760	760	00F6	010F	
761	761	00F6	010F	
762	762	00F3	010F	
763	763	00F6	010F	
764	764	00F3	0110	
765	765	00F6	0110	
766	766	00F0	0110	
767	767	00F1	0111	
768	768	00EF	0111	
769	769	00F0	0111	
770	770	00F0	0111	
771	771	00EF	0112	
772	772	00F1	0112	
773	773	00EE	0113	
774	774	00EF	0113	
775	775	00F0	0113	
776	776	00EE	0113	
777	777	00EA	0113	
778	778	00EE	0113	
779	779	00F2	0113	
780	780	00F0	0113	
781	781	00F1	0112	
782	782	00F0	0111	
783	783	00F5	0111	
784	784	00F2	0110	
785	785	00F6	0110	
786	786	00F0	010F	
787	787	00F4	010F	
788	788	00F4	010E	
789	789	00F7	010E	
790	790	00F3	010D	
791	791	00F3	010E	
792	792	00F5	010D	
793	793	00F3	010E	
794	794	00F1	010E	
795	795	00F1	010E	
796	796	00F1	010E	
797	797	00EF	010E	
798	798	00EC	010F	
799	799	00EE	0110	
800	800	00F0	0110	
801	801	00EE	0111	
802	802	00E9	0111	
803	803	00F2	0112	
804	804	00ED	0112	
805	805	00F0	0112	
806	806	00F3	0112	
807	807	00F5	0112	
808	808	00F2	0111	
809	809	00F4	0111	
810	810	00F3	0111	
811	811	00F4	0110	
812	812	00F1	0110	
813	813	00F0	0110	
814	814	00EF	010F	
815	815	00EF	010F	
816	816	00F1	010F	
817	817	00EF	010E	
818	818	00F1	010E	
819	819	00F2	010E	
820	820	00F0	010E	
821	821	00F2	010E	
822	822	00F2	010E	
823	823	00F0	010E	
824	824	00EF	010E	
825	825	00EF	010F	
826	826	00F3	010F	
827	827	00EE	0110	
828	828	00EF	0110	
829	829	00F2	0110	
830	830	00EF	0110	
831	831	00EE	0110	
832	832	00EC	0110	
833	833	00EF	0110	
834	834	00EE	010F	
835	835	00F1	010F	
836	836	00EC	010F	
837	837	00F1	010F	
838	838	00F3	010F	
839	839	00F3	010F	
840	840	00F3	010F	
841	841	00F4	010F	
842	842	00F6	010E	
843	843	00F2	010E	
844	844	00F3	010E	
845	845	00EE	010D	
846	846	00F0	010E	
847	847	00F4	010E	
848	848	00F1	010E	
849	849	00F5	010E	
850	850	00F3	010F	
851	851	00F1	010F	
852	852	00EF	010F	
853	853	00F1	010F	
854	854	00F0	010F	
855	855	00EE	0110	
856	856	00EE	0110	
857	857	00F0	0110	
858	858	00F3	0111	
859	859	00F6	0111	
860	860	00EA	0111	
861	861	00F3	0111	
862	862	00E8	0111	
863	863	00F2	0111	
864	864	00EE	0111	
865	865	00EF	0110	
866	866	00F1	0110	
867	867	00F0	0110	
868	868	00F1	0110	
869	869	00F4	0110	
870	870	00F0	0110	
871	871	00F3	010F	
872	872	00F6	010F	
873	873	00F1	010E	
874	874	00F1	010E	
875	875	00EE	010E	
876	876	00F0	010E	
877	877	00F0	010E	
878	878	00F2	010E	
879	879	00F2	010E	
880	880	00F4	010F	
881	881	00F3	010E	
882	882	00F2	010E	
883	883	00F3	010F	
884	884	00F5	010F	
885	885	00F2	010F	
886	886	00F3	010F	
887	887	00F3	0110	
888	888	00ED	0110	
889	889	00F3	0110	
890	890	00EE	0111	
891	891	00F0	0111	
892	892	00F2	0111	
893	893	00EE	0111	
894	894	00F4	0111	
895	895	00F1	0111	
896	896	00F3	0110	
897	897	00F3	0110	
898	898	00F2	0111	
899	899	00EF	0111	
900	900	00F3	0111	
901	901	00F1	0111	
902	902	00F2	0111	
903	903	00F3	0111	
904	904	00F2	0111	
905	905	00F4	0110	
906	906	00EF	0110	
907	907	00F1	0110	
908	908	00F6	0110	
909	909	00F1	0110	
910	910	00EB	0110	
911	911	00ED	0110	
912	912	00F1	0110	
913	913	00EB	0110	
914	914	00EF	0111	
915	915	00EC	0110	
916	916	00ED	0110	
917	917	00F1	0110	
918	918	00EE	0110	
919	919	00F2	010F	
920	920	00ED	010F	
921	921	00F0	010F	
922	922	00ED	010F	
923	923	00F0	010F	
924	924	00F1	010F	
925	925	00ED	010F	
926	926	00F0	010E	
927	927	00EC	010E	
928	928	00F0	010D	
929	929	00F3	010D	
930	930	00EF	010D	
931	931	00F0	010C	
932	932	00F0	010C	
933	933	00F1	010C	
934	934	00F1	010C	
935	935	00EA	010C	
936	936	00F2	010C	
937	937	00F3	010D	
938	938	00F1	010D	
939	939	00F1	010D	
940	940	00ED	010D	
941	941	00F2	010D	
942	942	00F0	010D	
943	943	00F1	010D	
944	944	00EB	010E	
945	945	00EF	010E	
946	946	00F4	010E	
947	947	00EF	010E	
948	948	00F2	010F	
949	949	00F0	010F	
950	950	00F2	010F	
951	951	00EE	010F	
952	952	00F2	010F	
953	953	00EE	010F	
954	954	00EE	010F	
955	955	00EE	010F	
956	956	00ED	010F	
957	957	00F1	010F	
958	958	00EE	010F	
959	959	00F2	010F	
960	960	00F5	010F	
961	961	00F2	010F	
962	962	00F0	010E	
963	963	00F0	010E	
964	964	00F3	010E	
965	965	00F2	010E	
966	966	00EB	010E	
967	967	00F1	010F	
968	968	00EE	010F	
969	969	00F3	010F	
970	970	00F0	010F	
971	971	00F4	010F	
972	972	00F7	010E	
973	973	00F2	010E	
974	974	00F0	010E	
975	975	00F4	010E	
976	976	00F5	010E	
977	977	00F0	010F	
978	978	00F4	010F	
979	979	00EE	0110	
980	980	00F3	0110	
981	981	00F2	0110	
982	982	00F1	0111	
983	983	00EF	0110	
984	984	00F0	0110	
985	985	00F1	0110	
986	986	00F5	0110	
987	987	00F3	0110	
988	988	00F1	0110	
989	989	00F1	0111	
990	990	00F4	0111	
991	991	00EF	0111	
992	992	00F0	0111	
993	993	00F1	0112	
994	994	00EF	0111	
995	995	00F3	0111	
996	996	00F2	0111	
997	997	00F3	0111	
998	998	00F4	0110	
999	999	00F6	0110	
1000	1000	00F2	0110	
1001	1001	00F2	0110	
1002	1002	00F2	0110	
1003	1003	00F0	0110	
1004	1004	00EF	0110	
1005	1005	00ED	0110	
1006	1006	00F1	0110	
