Sample in Buffer	Sample in Window	adc1_Base	adc1_data	adc1_shape	fifo_adc1_dout
0	0	00F5	0113	0183	
1	1	00F5	0113	0183	
2	2	00F6	0113	0183	
3	3	00FA	0113	0183	
4	4	00F8	0113	0183	
5	5	00F9	0113	0183	
6	6	00FB	0113	0183	
7	7	00F7	0113	0183	
8	8	00FA	0113	0183	
9	9	00F9	0113	0183	
10	10	00FA	0113	0183	
11	11	00F4	0114	0183	
12	12	00F6	0114	0183	
13	13	00F7	0115	0183	
14	14	00F9	0115	0183	
15	15	00F4	0115	0183	
16	16	00F8	0116	0183	
17	17	00F6	0116	0183	
18	18	00F6	0116	0183	
19	19	00F4	0116	0183	
20	20	00F8	0117	0183	
21	21	00F4	0117	0183	
22	22	00F7	0117	0183	
23	23	00F5	0118	0183	
24	24	00F0	0118	0183	
25	25	00F6	0118	0183	
26	26	00F7	0118	0183	
27	27	00F2	0118	0183	
28	28	00F5	0117	0183	
29	29	00FA	0117	0183	
30	30	00F4	0117	0183	
31	31	00F5	0116	0183	
32	32	00F1	0116	0183	
33	33	00F4	0115	0183	
34	34	00F6	0115	0183	
35	35	00F8	0115	0183	
36	36	00F5	0115	0183	
37	37	00F4	0115	0183	
38	38	00F8	0114	0183	
39	39	00F7	0114	0183	
40	40	00F7	0114	0183	
41	41	00F9	0113	0183	
42	42	00F9	0113	0183	
43	43	00F9	0113	0183	
44	44	00F9	0113	0183	
45	45	00F8	0113	0183	
46	46	00F4	0114	0183	
47	47	00F8	0114	0183	
48	48	00F8	0114	0183	
49	49	00FA	0115	0183	
50	50	00F9	0115	0183	
51	51	00F6	0115	0183	
52	52	00F4	0115	0183	
53	53	00F9	0115	0183	
54	54	00F5	0116	0183	
55	55	00FB	0116	0183	
56	56	00F7	0117	0183	
57	57	00F5	0117	0183	
58	58	00F5	0117	0183	
59	59	00F4	0117	0183	
60	60	00F2	0118	0183	
61	61	00F2	0118	0183	
62	62	00F6	0118	0183	
63	63	00F6	0118	0183	
64	64	00F4	0117	0183	
65	65	00F5	0117	0183	
66	66	00F7	0117	0183	
67	67	00F6	0116	0183	
68	68	00F6	0116	0183	
69	69	00F2	0116	0183	
70	70	00FA	0116	0183	
71	71	00FB	0116	0183	
72	72	00F9	0115	0183	
73	73	00F6	0115	0183	
74	74	00F6	0115	0183	
75	75	00F8	0115	0183	
76	76	00F5	0114	0183	
77	77	00F1	0114	0183	
78	78	00F6	0114	0183	
79	79	00F9	0114	0183	
80	80	00F4	0114	0183	
81	81	00F9	0114	0183	
82	82	00F1	0114	0183	
83	83	00F6	0114	0183	
84	84	00F8	0115	0183	
85	85	00F9	0115	0183	
86	86	00FB	0115	0183	
87	87	00F7	0115	0183	
88	88	00FA	0115	0183	
89	89	00F6	0115	0183	
90	90	00F6	0116	0183	
91	91	00F1	0116	0183	
92	92	00F5	0116	0183	
93	93	00F2	0116	0183	
94	94	00F9	0116	0183	
95	95	00F5	0116	0183	
96	96	00F4	0116	0183	
97	97	00F5	0116	0183	
98	98	00F3	0116	0183	
99	99	00F2	0116	0183	
100	100	00F3	0116	0183	
101	101	00F5	0116	0183	
102	102	00FB	0116	0183	
103	103	00F4	0116	0183	
104	104	00F5	0115	0183	
105	105	00F6	0115	0183	
106	106	00F3	0115	0183	
107	107	00F9	0115	0183	
108	108	00F3	0115	0183	
109	109	00F2	0114	0183	
110	110	00F1	0114	0183	
111	111	00F4	0114	0183	
112	112	00F5	0114	0183	
113	113	00F4	0114	0183	
114	114	00F5	0114	0183	
115	115	00F4	0114	0183	
116	116	00F4	0114	0183	
117	117	00F6	0113	0183	
118	118	00F0	0113	0183	
119	119	00F5	0113	0183	
120	120	00F6	0113	0183	
121	121	00F6	0113	0183	
122	122	00F0	0113	0183	
123	123	00F4	0113	0183	
124	124	00F5	0113	0183	
125	125	00F3	0113	0183	
126	126	00F7	0113	0183	
127	127	00F7	0113	0183	
128	128	00F3	0113	0183	
129	129	00F2	0113	0183	
130	130	00F7	0113	0183	
131	131	00F7	0113	0183	
132	132	00F5	0113	0183	
133	133	00F6	0113	0183	
134	134	00FA	0113	0183	
135	135	00F2	0113	0183	
136	136	00EE	0113	0183	
137	137	00F3	0113	0183	
138	138	00F9	0113	0183	
139	139	00F4	0113	0183	
140	140	00F6	0113	0183	
141	141	00F4	0114	0183	
142	142	00F4	0114	0183	
143	143	00F2	0113	0183	
144	144	00F6	0114	0183	
145	145	00F4	0114	0183	
146	146	00F7	0114	0183	
147	147	00F0	0114	0183	
148	148	00F3	0114	0183	
149	149	00F5	0114	0183	
150	150	00FA	0114	0183	
151	151	00F6	0114	0183	
152	152	00F2	0114	0183	
153	153	00F5	0114	0183	
154	154	00F6	0114	0183	
155	155	00F5	0114	0183	
156	156	00F7	0114	0183	
157	157	00F4	0113	0183	
158	158	00F5	0113	0183	
159	159	00F4	0114	0183	
160	160	00F2	0114	0183	
161	161	00F6	0114	0183	
162	162	00F4	0114	0183	
163	163	00F2	0114	0183	
164	164	00F6	0114	0183	
165	165	00F7	0114	0183	
166	166	00F2	0114	0183	
167	167	00FA	0114	0183	
168	168	00F8	0114	0183	
169	169	00F9	0113	0183	
170	170	00F6	0114	0183	
171	171	00F6	0114	0183	
172	172	00F4	0114	0183	
173	173	00FB	0114	0183	
174	174	00F7	0114	0183	
175	175	00F4	0115	0183	
176	176	00F6	0114	0183	
177	177	00F6	0114	0183	
178	178	00F5	0115	0183	
179	179	00F9	0115	0183	
180	180	00F8	0115	0183	
181	181	00FA	0115	0183	
182	182	00F6	0115	0183	
183	183	00FC	0115	0183	
184	184	00F6	0115	0183	
185	185	00F5	0116	0183	
186	186	00F6	0116	0183	
187	187	00FB	0116	0183	
188	188	00F9	0116	0183	
189	189	00F6	0117	0183	
190	190	00F4	0117	0183	
191	191	00FB	0117	0183	
192	192	00F6	0117	0183	
193	193	00F5	0117	0183	
194	194	00F4	0117	0183	
195	195	00F6	0117	0183	
196	196	00EF	0117	0183	
197	197	00F6	0117	0183	
198	198	00F0	0117	0183	
199	199	00F9	0117	0183	
200	200	00F6	0117	0183	
201	201	00F0	0117	0183	
202	202	00F8	0117	0183	
203	203	00F5	0116	0183	
204	204	00F8	0116	0183	
205	205	00F5	0116	0183	
206	206	00F6	0115	0183	
207	207	00F6	0115	0183	
208	208	00F8	0115	0183	
209	209	00F8	0115	0183	
210	210	00F3	0115	0183	
211	211	00F2	0114	0183	
212	212	00F3	0114	0183	
213	213	00F4	0114	0183	
214	214	00F6	0114	0183	
215	215	00F8	0114	0183	
216	216	00F1	0114	0183	
217	217	00F4	0113	0183	
218	218	00F9	0113	0183	
219	219	00F5	0114	0183	
220	220	00F1	0114	0183	
221	221	00F8	0114	0183	
222	222	00FA	0114	0183	
223	223	00F6	0114	0183	
224	224	00F3	0114	0183	
225	225	00F4	0114	0183	
226	226	00F2	0114	0183	
227	227	00F3	0114	0183	
228	228	00F2	0114	0183	
229	229	00F8	0114	0183	
230	230	00F4	0114	0183	
231	231	00F7	0114	0183	
232	232	00F5	0114	0183	
233	233	00F2	0114	0183	
234	234	00F8	0114	0183	
235	235	00F7	0114	0183	
236	236	00F7	0114	0183	
237	237	00F2	0114	0183	
238	238	00F2	0114	0183	
239	239	00F2	0114	0183	
240	240	00F4	0114	0183	
241	241	00F2	0114	0183	
242	242	00F2	0114	0183	
243	243	00F3	0114	0183	
244	244	00F3	0114	0183	
245	245	00F9	0113	0183	
246	246	00FA	0113	0183	
247	247	00F0	0113	0183	
248	248	00F2	0113	0183	
249	249	00F4	0113	0183	
250	250	00F4	0113	0183	
251	251	00F8	0114	0183	
252	252	00F3	0113	0183	
253	253	00F6	0113	0183	
254	254	00F8	0113	0183	
255	255	00F4	0113	0183	
256	256	00F5	0113	0183	
257	257	00F6	0113	0183	
258	258	00F7	0113	0183	
259	259	00F6	0112	0183	
260	260	00F9	0113	0183	
261	261	00F0	0113	0183	
262	262	00FC	0113	0183	
263	263	00F7	0114	0183	
264	264	00F4	0114	0183	
265	265	00F8	0114	0183	
266	266	00F6	0114	0183	
267	267	00F8	0114	0183	
268	268	00F5	0114	0183	
269	269	00F6	0114	0183	
270	270	00F9	0115	0183	
271	271	00FB	0115	0183	
272	272	00F8	0115	0183	
273	273	00F7	0116	0183	
274	274	00F4	0116	0183	
275	275	00FB	0116	0183	
276	276	00F8	0116	0183	
277	277	00F6	0116	0183	
278	278	00F3	0117	0183	
279	279	00F1	0117	0183	
280	280	00FA	0117	0183	
281	281	00FA	0117	0183	
282	282	00FA	0117	0183	
283	283	00F7	0117	0183	
284	284	00F7	0117	0183	
285	285	00F9	0116	0183	
286	286	00F5	0117	0183	
287	287	00F5	0117	0183	
288	288	00F9	0117	0183	
289	289	00F4	0117	0183	
290	290	00F6	0117	0183	
291	291	00F7	0117	0183	
292	292	00F5	0117	0183	
293	293	00F6	0117	0183	
294	294	00F8	0117	0183	
295	295	00F8	0116	0183	
296	296	00F8	0116	0183	
297	297	00F7	0116	0183	
298	298	00F7	0116	0183	
299	299	00F5	0116	0183	
300	300	00F9	0116	0183	
301	301	00F9	0116	0183	
302	302	00F6	0117	0183	
303	303	00F6	0117	0183	
304	304	00F9	0116	0183	
305	305	00F7	0116	0183	
306	306	00FA	0116	0183	
307	307	00F6	0116	0183	
308	308	00F7	0116	0183	
309	309	00F7	0116	0183	
310	310	00F2	0116	0183	
311	311	00F5	0116	0183	
312	312	00F6	0116	0183	
313	313	00FD	0117	0183	
314	314	00F7	0116	0183	
315	315	00F5	0117	0183	
316	316	00F1	0117	0183	
317	317	00F9	0117	0183	
318	318	00F4	0116	0183	
319	319	00F8	0116	0183	
320	320	00F2	0116	0183	
321	321	00F8	0116	0183	
322	322	00F3	0116	0183	
323	323	00F4	0116	0183	
324	324	00F3	0116	0183	
325	325	00F2	0116	0183	
326	326	00F3	0116	0183	
327	327	00F8	0116	0183	
328	328	00F5	0116	0183	
329	329	00FB	0115	0183	
330	330	00F6	0115	0183	
331	331	00F5	0114	0183	
332	332	00F4	0114	0183	
333	333	00F9	0114	0183	
334	334	00F5	0114	0183	
335	335	00F3	0115	0183	
336	336	00F7	0114	0183	
337	337	00F4	0114	0183	
338	338	00F2	0114	0183	
339	339	00F4	0114	0183	
340	340	00F5	0114	0183	
341	341	00FC	0114	0183	
342	342	00F5	0114	0183	
343	343	00F8	0114	0183	
344	344	00F6	0114	0183	
345	345	00F4	0114	0183	
346	346	00F1	0114	0183	
347	347	00F6	0114	0183	
348	348	00F8	0115	0183	
349	349	00F7	0115	0183	
350	350	00F7	0115	0183	
351	351	00F8	0115	0183	
352	352	00F9	0114	0183	
353	353	00FC	0115	0183	
354	354	00FB	0115	0183	
355	355	01F0	0115	0183	
356	356	0620	0115	0183	
357	357	0AC6	0115	0183	
358	358	0E55	0115	0183	
359	359	108C	0116	0183	
360	360	11B0	0116	0183	
361	361	1227	0121	0183	
362	362	122E	015B	0183	
363	363	1212	01CD	0000	
364	364	11BD	0270	0000	
365	365	1121	0339	0000	
366	366	1067	041D	0000	
367	367	0FA6	0518	0000	
368	368	0EEE	0625	0000	
369	369	0E2E	0741	0000	
370	370	0D50	086B	0000	
371	371	0C7E	099F	0000	
372	372	0BBC	0ADB	0000	
373	373	0AFA	0C1E	0000	
374	374	0A27	0D68	0000	
375	375	0983	0EB7	0000	
376	376	08D8	100A	0000	
377	377	0821	1160	0000	
378	378	077B	12A4	0000	
379	379	06F5	138D	0000	
380	380	0687	1406	0000	
381	381	0615	141F	0000	
382	382	05AA	13EE	0000	
383	383	054E	1385	0000	
384	384	04FE	12F0	0000	
385	385	04AA	1239	0000	
386	386	0466	1163	0000	
387	387	041A	1072	0000	
388	388	03DF	0F6F	0000	
389	389	0398	0E5B	0000	
390	390	0369	0D3A	0000	
391	391	033A	0C0D	0000	
392	392	0315	0AD4	0000	
393	393	02F1	0995	0000	
394	394	02C9	084F	0000	
395	395	02A2	070E	0000	
396	396	0289	05F7	0000	
397	397	0272	0517	0000	
398	398	0261	0464	0000	
399	399	024F	03D5	0000	
400	400	023F	0363	0000	
401	401	0231	0307	0000	
402	402	021A	02BB	0000	
403	403	020B	027D	0000	
404	404	01F7	024C	0000	
405	405	01DF	0225	0000	
406	406	01CB	0205	0000	
407	407	01B3	01EB	0000	
408	408	01A6	01D7	0000	
409	409	01AB	01C8	0000	
410	410	01A8	01BD	0000	
411	411	019D	01B3	0000	
412	412	0193	01AD	0000	
413	413	018D	01A8	0000	
414	414	018C	01A4	0000	
415	415	018A	01A1	0000	
416	416	0188	019F	0000	
417	417	0181	019C	0000	
418	418	0176	0199	0000	
419	419	016C	0197	0000	
420	420	015F	0195	0000	
421	421	0161	0192	0000	
422	422	015E	0190	0000	
423	423	0157	018D	0000	
424	424	0151	0189	0000	
425	425	0151	0186	0000	
426	426	0149	0182	0000	
427	427	0144	017F	0000	
428	428	0141	017D	0000	
429	429	013F	017A	0000	
430	430	0138	0178	0000	
431	431	013D	0177	0000	
432	432	013A	0175	0000	
433	433	013B	0173	0000	
434	434	0137	0170	0000	
435	435	0136	016D	0000	
436	436	0139	016A	0000	
437	437	0134	0167	0000	
438	438	0133	0164	0000	
439	439	0132	0161	0000	
440	440	0128	015F	0000	
441	441	012C	015D	0000	
442	442	0126	015B	0000	
443	443	0125	015A	0000	
444	444	0125	0159	0000	
445	445	0125	0157	0000	
446	446	011E	0155	0000	
447	447	0115	0152	0000	
448	448	010F	0150	0000	
449	449	0114	014E	0000	
450	450	0117	014D	0000	
451	451	011A	014B	0000	
452	452	0118	014A	0000	
453	453	011A	0149	0000	
454	454	011B	0147	0000	
455	455	011B	0145	0000	
456	456	0118	0144	0000	
457	457	011D	0143	0000	
458	458	011C	0142	0000	
459	459	011D	0140	0000	
460	460	0113	013E	0000	
461	461	0115	013D	0000	
462	462	0114	013B	0000	
463	463	0111	013B	0000	
464	464	0113	013A	0000	
465	465	0110	0139	0000	
466	466	0115	0138	0000	
467	467	0119	0137	0000	
468	468	0116	0135	0000	
469	469	010F	0135	0000	
470	470	0112	0134	0000	
471	471	0112	0135	0000	
472	472	0111	0135	0000	
473	473	0110	0136	0000	
474	474	010C	0136	0000	
475	475	0112	0136	0000	
476	476	010F	0136	0000	
477	477	010D	0136	0000	
478	478	010E	0136	0000	
479	479	010B	0136	0000	
480	480	010A	0135	0000	
481	481	010A	0135	0000	
482	482	0108	0134	0000	
483	483	0103	0134	0000	
484	484	0104	0134	0000	
485	485	0104	0133	0000	
486	486	0105	0133	0000	
487	487	0104	0132	0000	
488	488	0102	0132	0000	
489	489	0108	0130	0000	
490	490	0107	012F	0000	
491	491	0107	012D	0000	
492	492	0107	012D	0000	
493	493	0104	012C	0000	
494	494	0107	012B	0000	
495	495	0108	012A	0000	
496	496	0106	0129	0000	
497	497	0102	0129	0000	
498	498	010A	0128	0000	
499	499	010C	0127	0000	
500	500	010E	0127	141F	
501	501	0106	0126	141F	
502	502	0109	0125	141F	
503	503	0106	0125	141F	
504	504	0107	0124	141F	
505	505	0103	0124	141F	
506	506	0101	0125	141F	
507	507	0102	0125	141F	
508	508	00FF	0126	141F	
509	509	0100	0126	141F	
510	510	0101	0126	141F	
511	511	00FD	0127	141F	
512	512	0100	0127	141F	
513	513	00FE	0127	141F	
514	514	00FE	0126	141F	
515	515	00FE	0126	141F	
516	516	0103	0127	141F	
517	517	0100	0126	141F	
518	518	0101	0126	141F	
519	519	00FC	0126	141F	
520	520	0101	0126	141F	
521	521	0101	0125	141F	
522	522	00FB	0125	141F	
523	523	0102	0123	141F	
524	524	0101	0123	141F	
525	525	00FD	0121	141F	
526	526	00FD	0121	141F	
527	527	00FC	0120	141F	
528	528	00FD	011F	141F	
529	529	0102	011F	141F	
530	530	00FF	011F	141F	
531	531	00FD	011E	141F	
532	532	00FB	011E	141F	
533	533	00FD	011E	141F	
534	534	00FD	011E	141F	
535	535	00F8	011E	141F	
536	536	00F8	011E	141F	
537	537	00F5	011D	141F	
538	538	00F8	011E	141F	
539	539	00FE	011D	141F	
540	540	0100	011E	141F	
541	541	00FD	011D	141F	
542	542	00FE	011D	141F	
543	543	00FE	011D	141F	
544	544	00FD	011C	141F	
545	545	00FA	011D	141F	
546	546	00FB	011C	141F	
547	547	00F4	011C	141F	
548	548	00F5	011C	141F	
549	549	00F6	011C	141F	
550	550	00FC	011C	141F	
551	551	00F6	011C	141F	
552	552	00F8	011B	141F	
553	553	00FA	011A	141F	
554	554	00F4	011A	141F	
555	555	00F7	0119	141F	
556	556	00F9	0119	141F	
557	557	00F8	0119	141F	
558	558	00F6	0119	141F	
559	559	00F7	0119	141F	
560	560	00F8	0119	141F	
561	561	00FB	0119	141F	
562	562	00F9	0119	141F	
563	563	00F4	0118	141F	
564	564	00FA	0118	141F	
565	565	00F6	0117	141F	
566	566	00FB	0117	141F	
567	567	00F8	0116	141F	
568	568	00F3	0116	141F	
569	569	00FA	0116	141F	
570	570	00FB	0116	141F	
571	571	00F6	0117	141F	
572	572	00F5	0117	141F	
573	573	00F4	0117	141F	
574	574	00F3	0117	141F	
575	575	00F8	0116	141F	
576	576	00FE	0116	141F	
577	577	00F8	0116	141F	
578	578	00F2	0116	141F	
579	579	00F7	0116	141F	
580	580	00F1	0116	141F	
581	581	00F4	0116	141F	
582	582	00F5	0117	141F	
583	583	00F6	0117	141F	
584	584	00F2	0117	141F	
585	585	00F6	0117	141F	
586	586	00FA	0117	141F	
587	587	00F1	0116	141F	
588	588	00F4	0116	141F	
589	589	00F3	0115	141F	
590	590	00F8	0115	141F	
591	591	00F6	0115	141F	
592	592	00F4	0115	141F	
593	593	00F6	0115	141F	
594	594	00F5	0114	141F	
595	595	00EE	0114	141F	
596	596	00F3	0114	141F	
597	597	00F2	0115	141F	
598	598	00F4	0114	141F	
599	599	00F0	0113	141F	
600	600	00F3	0113	141F	
601	601	00EF	0113	141F	
602	602	00F2	0113	141F	
603	603	00F6	0113	141F	
604	604	00F3	0113	141F	
605	605	00F4	0113	141F	
606	606	00F6	0113	141F	
607	607	00F4	0112	141F	
608	608	00F5	0112	141F	
609	609	00F6	0112	141F	
610	610	00FA	0112	141F	
611	611	00F5	0112	141F	
612	612	00F7	0112	141F	
613	613	00FC	0112	141F	
614	614	00F5	0111	141F	
615	615	00F7	0111	141F	
616	616	00F7	0112	141F	
617	617	00F9	0112	141F	
618	618	00F7	0112	141F	
619	619	00F2	0113	141F	
620	620	00F5	0113	141F	
621	621	00F2	0113	141F	
622	622	00F9	0114	141F	
623	623	00F3	0114	141F	
624	624	00F3	0115	141F	
625	625	00F6	0115	141F	
626	626	00F8	0115	141F	
627	627	00F2	0115	141F	
628	628	00F6	0116	141F	
629	629	00F6	0116	141F	
630	630	00F4	0116	141F	
631	631	00F4	0116	141F	
632	632	00F7	0117	141F	
633	633	00F6	0116	141F	
634	634	00F3	0116	141F	
635	635	00F3	0116	141F	
636	636	00F4	0116	141F	
637	637	00F3	0115	141F	
638	638	00F8	0115	141F	
639	639	00F4	0115	141F	
640	640	00F8	0114	141F	
641	641	00F3	0114	141F	
642	642	00F3	0114	141F	
643	643	00F4	0114	141F	
644	644	00F0	0114	141F	
645	645	00F6	0113	141F	
646	646	00F9	0114	141F	
647	647	00F4	0114	141F	
648	648	00F4	0113	141F	
649	649	00F4	0113	141F	
650	650	00F3	0113	141F	
651	651	00F7	0113	141F	
652	652	00FC	0113	141F	
653	653	00F6	0113	141F	
654	654	00F8	0113	141F	
655	655	00F8	0113	141F	
656	656	00F7	0113	141F	
657	657	00FA	0113	141F	
658	658	00FC	0114	141F	
659	659	00F7	0114	141F	
660	660	00FE	0114	141F	
661	661	00F9	0114	141F	
662	662	00F9	0115	141F	
663	663	00F7	0114	141F	
664	664	00F5	0115	141F	
665	665	00F7	0115	141F	
666	666	00F4	0116	141F	
667	667	00F5	0117	141F	
668	668	00F8	0117	141F	
669	669	00F6	0117	141F	
670	670	00F3	0117	141F	
671	671	00F6	0118	141F	
672	672	00F7	0118	141F	
673	673	00F1	0118	141F	
674	674	00F2	0118	141F	
675	675	00F6	0118	141F	
676	676	00F9	0118	141F	
677	677	00F2	0118	141F	
678	678	00EE	0118	141F	
679	679	00F9	0118	141F	
680	680	00F0	0117	141F	
681	681	00F1	0117	141F	
682	682	00F2	0117	141F	
683	683	00ED	0116	141F	
684	684	00F3	0115	141F	
685	685	00EF	0115	141F	
686	686	00F5	0114	141F	
687	687	00F4	0114	141F	
688	688	00F4	0113	141F	
689	689	00EF	0113	141F	
690	690	00F2	0112	141F	
691	691	00F3	0111	141F	
692	692	00F7	0111	141F	
693	693	00F3	0111	141F	
694	694	00F8	0111	141F	
695	695	00FB	0110	141F	
696	696	00F3	0110	141F	
697	697	00F6	0110	141F	
698	698	00F7	0110	141F	
699	699	00F1	0110	141F	
700	700	00F4	0110	141F	
701	701	00F3	0111	141F	
702	702	00EE	0111	141F	
703	703	00F3	0111	141F	
704	704	00F0	0111	141F	
705	705	00F4	0112	141F	
706	706	00F1	0112	141F	
707	707	00FA	0112	141F	
708	708	00FB	0113	141F	
709	709	00EF	0113	141F	
710	710	00F3	0112	141F	
711	711	00F0	0113	141F	
712	712	00F8	0113	141F	
713	713	00EE	0113	141F	
714	714	00F3	0114	141F	
715	715	00F4	0114	141F	
716	716	00EF	0114	141F	
717	717	00F1	0114	141F	
718	718	00EE	0113	141F	
719	719	00F3	0113	141F	
720	720	00F7	0113	141F	
721	721	00F2	0112	141F	
722	722	00F4	0112	141F	
723	723	00F6	0112	141F	
724	724	00F4	0111	141F	
725	725	00F3	0111	141F	
726	726	00F2	0112	141F	
727	727	00F4	0112	141F	
728	728	00F4	0112	141F	
729	729	00F5	0112	141F	
730	730	00F6	0111	141F	
731	731	00F7	0110	141F	
732	732	00F4	0111	141F	
733	733	00F4	0111	141F	
734	734	00F4	0111	141F	
735	735	00EF	0111	141F	
736	736	00F2	0112	141F	
737	737	00F5	0112	141F	
738	738	00F2	0112	141F	
739	739	00F3	0112	141F	
740	740	00F2	0113	141F	
741	741	00EE	0113	141F	
742	742	00F3	0113	141F	
743	743	00F0	0113	141F	
744	744	00F6	0113	141F	
745	745	00F5	0113	141F	
746	746	00F2	0112	141F	
747	747	00F0	0112	141F	
748	748	00F0	0113	141F	
749	749	00F8	0113	141F	
750	750	00F2	0113	141F	
751	751	00F2	0113	141F	
752	752	00F2	0113	141F	
753	753	00F5	0112	141F	
754	754	00F5	0112	141F	
755	755	00F5	0112	141F	
756	756	00F2	0111	141F	
757	757	00F8	0111	141F	
758	758	00F5	0111	141F	
759	759	00F2	0111	141F	
760	760	00F5	0111	141F	
761	761	00F5	0111	141F	
762	762	00F5	0111	141F	
763	763	00F3	0111	141F	
764	764	00F4	0112	141F	
765	765	00F5	0112	141F	
766	766	00F5	0112	141F	
767	767	00F6	0112	141F	
768	768	00F5	0112	141F	
769	769	00F3	0112	141F	
770	770	00F5	0113	141F	
771	771	00EF	0113	141F	
772	772	00F1	0113	141F	
773	773	00F4	0114	141F	
774	774	00F6	0114	141F	
775	775	00F4	0114	141F	
776	776	00F3	0114	141F	
777	777	00F2	0114	141F	
778	778	00F3	0114	141F	
779	779	00F5	0114	141F	
780	780	00F6	0114	141F	
781	781	00F8	0113	141F	
782	782	00F1	0113	141F	
783	783	00F0	0113	141F	
784	784	00F6	0113	141F	
785	785	00F4	0113	141F	
786	786	00F4	0113	141F	
787	787	00F0	0113	141F	
788	788	00F2	0113	141F	
789	789	00F2	0113	141F	
790	790	00EE	0112	141F	
791	791	00F1	0112	141F	
792	792	00F3	0112	141F	
793	793	00F1	0112	141F	
794	794	00EE	0112	141F	
795	795	00F6	0112	141F	
796	796	00F4	0112	141F	
797	797	00F1	0112	141F	
798	798	00F5	0112	141F	
799	799	00F5	0112	141F	
800	800	00F8	0111	141F	
801	801	00F0	0112	141F	
802	802	00F5	0111	141F	
803	803	00F4	0111	141F	
804	804	00FA	0111	141F	
